
T20FC 000:049 SEGGER J-Link V6.00 Log File (0001ms, 0033ms total)
T20FC 000:049 DLL Compiled: Jul 22 2016 19:26:51 (0001ms, 0033ms total)
T20FC 000:049 Logging started @ 2016-11-14 16:57 (0001ms, 0033ms total)
T20FC 000:050 JLINK_SetWarnOutHandler(...) (0000ms, 0033ms total)
T20FC 000:050 JLINK_OpenEx(...)
Firmware: J-Link V9 compiled Jul 14 2016 14:25:35
Hardware: V9.40
S/N: 59400008
Feature(s): GDB, RDI, FlashBP, FlashDL, JFlash  returns O.K. (0029ms, 0062ms total)
T20FC 000:079 JLINK_SetErrorOutHandler(...) (0000ms, 0062ms total)
T20FC 000:079 JLINK_ExecCommand("ProjectFile = "E:\contiki\ÎÂÊª¶È\SensorIV2.2µ÷ÊÔ°æ\Code\Sensor_IV_Code\apps\sensor\project\JLinkSettings.ini"", ...).   returns 0x00 (0089ms, 0151ms total)
T20FC 000:172 JLINK_ExecCommand("Device = SiM3L144", ...). Device "SIM3L144" selected.  returns 0x00 (0004ms, 0155ms total)
T20FC 000:176 JLINK_ExecCommand("DisableConnectionTimeout", ...).   returns 0x01 (0000ms, 0155ms total)
T20FC 000:176 JLINK_GetHardwareVersion()  returns 0x16F30 (0000ms, 0155ms total)
T20FC 000:176 JLINK_GetDLLVersion()  returns 60000 (0000ms, 0155ms total)
T20FC 000:176 JLINK_GetFirmwareString(...) (0000ms, 0155ms total)
T20FC 000:185 JLINK_GetDLLVersion()  returns 60000 (0000ms, 0155ms total)
T20FC 000:185 JLINK_GetCompileDateTime() (0000ms, 0155ms total)
T20FC 000:188 JLINK_GetFirmwareString(...) (0000ms, 0155ms total)
T20FC 000:192 JLINK_GetHardwareVersion()  returns 0x16F30 (0000ms, 0155ms total)
T20FC 000:204 JLINK_TIF_Select(JLINKARM_TIF_SWD)  returns 0x00 (0000ms, 0155ms total)
T20FC 000:204 JLINK_SetMaxSpeed() >0x108 TIF>Found SWD-DP with ID 0x2BA01477 >0x0D TIF> >0x28 TIF> >0x0D TIF> >0x28 TIF> >0x0D TIF> >0x28 TIF> >0x0D TIF> >0x28 TIF> >0x0D TIF> >0x21 TIF> >0x0D TIF> >0x28 TIF> >0x0D TIF> >0x28 TIF> >0x0D TIF> >0x21 TIF> >0x0D TIF> >0x21 TIF> >0x0D TIF> >0x28 TIF> >0x0D TIF> >0x28 TIF> >0x0D TIF> >0x21 TIF> >0x0D TIF> >0x21 TIF> >0x108 TIF>Found SWD-DP with ID 0x2BA01477 >0x0D TIF> >0x28 TIF> >0x0D TIF> >0x28 TIF> >0x0D TIF> >0x28 TIF> >0x0D TIF> >0x28 TIF> >0x0D TIF>
 >0x21 TIF> >0x0D TIF> >0x28 TIF> >0x0D TIF> >0x28 TIF> >0x0D TIF> >0x21 TIF> >0x0D TIF> >0x21 TIF> >0x0D TIF> >0x21 TIF>AP-IDR: 0x24770011, Type: AHB-AP >0x0D TIF> >0x28 TIF> >0x0D TIF> >0x28 TIF> >0x0D TIF> >0x28 TIF> >0x0D TIF> >0x21 TIF> >0x0D TIF> >0x21 TIF> >0x0D TIF> >0x28 TIF> >0x0D TIF> >0x21 TIF> >0x0D TIF> >0x21 TIF>Found Cortex-M3 r2p1, Little endian. -- CPU_ReadMem(4 bytes @ 0xE000EDF0) -- CPU_ReadMem(4 bytes @ 0xE0002000)FPUnit: 6 code (BP) slots and 2 literal slots
 -- CPU_ReadMem(4 bytes @ 0xE000EDFC) -- CPU_ReadMem(4 bytes @ 0xE0001000) -- CPU_WriteMem(4 bytes @ 0xE0001000) -- CPU_ReadMem(4 bytes @ 0xE000ED88) -- CPU_WriteMem(4 bytes @ 0xE000ED88) -- CPU_ReadMem(4 bytes @ 0xE000ED88) -- CPU_WriteMem(4 bytes @ 0xE000ED88)CoreSight components:ROMTbl 0 @ E00FF000 -- CPU_ReadMem(16 bytes @ 0xE00FF000) -- CPU_ReadMem(16 bytes @ 0xE000EFF0) -- CPU_ReadMem(16 bytes @ 0xE000EFE0)ROMTbl 0 [0]: FFF0F000, CID: B105E00D, PID: 000BB000 SCS
 -- CPU_ReadMem(16 bytes @ 0xE0001FF0) -- CPU_ReadMem(16 bytes @ 0xE0001FE0)ROMTbl 0 [1]: FFF02000, CID: B105E00D, PID: 003BB002 DWT -- CPU_ReadMem(16 bytes @ 0xE0002FF0) -- CPU_ReadMem(16 bytes @ 0xE0002FE0)ROMTbl 0 [2]: FFF03000, CID: B105E00D, PID: 002BB003 FPB -- CPU_ReadMem(16 bytes @ 0xE0000FF0) -- CPU_ReadMem(16 bytes @ 0xE0000FE0)ROMTbl 0 [3]: FFF01000, CID: B105E00D, PID: 003BB001 ITM -- CPU_ReadMem(16 bytes @ 0xE00FF010) -- CPU_ReadMem(16 bytes @ 0xE0040FF0)
 -- CPU_ReadMem(16 bytes @ 0xE0040FE0)ROMTbl 0 [4]: FFF41000, CID: B105900D, PID: 003BB923 TPIU-Lite -- CPU_ReadMem(16 bytes @ 0xE0041FF0) -- CPU_ReadMem(16 bytes @ 0xE0041FE0)ROMTbl 0 [5]: FFF42000, CID: B105900D, PID: 003BB924 ETM-M3 (0101ms, 0256ms total)
T20FC 000:305 JLINK_GetSpeed()  returns 0x7D0 (0000ms, 0256ms total)
T20FC 000:305 JLINK_SetSpeed(1000) (0000ms, 0256ms total)
T20FC 000:305 JLINK_GetId() >0x0D TIF> >0x21 TIF>  returns 0x2BA01477 (0000ms, 0256ms total)
T20FC 000:305 JLINK_CORE_GetFound()  returns 0x30000FF (0000ms, 0256ms total)
T20FC 000:308 JLINK_ReadMem (0xE00FFFF0, 0x0010 Bytes, ...) -- CPU is running -- CPU_ReadMem(16 bytes @ 0xE00FFFF0) - Data: 0D 00 00 00 10 00 00 00 05 00 00 00 B1 00 00 00  returns 0x00 (0000ms, 0256ms total)
T20FC 000:308 JLINK_ReadMem (0xE00FFFD0, 0x0020 Bytes, ...) -- CPU is running -- CPU_ReadMem(32 bytes @ 0xE00FFFD0) - Data: 04 00 00 00 00 00 00 00 00 00 00 00 00 00 00 00 ...  returns 0x00 (0001ms, 0257ms total)
T20FC 000:309 JLINK_ReadMem (0xE00FF000, 0x0018 Bytes, ...) -- CPU is running -- CPU_ReadMem(24 bytes @ 0xE00FF000) - Data: 03 F0 F0 FF 03 20 F0 FF 03 30 F0 FF 03 10 F0 FF ...  returns 0x00 (0001ms, 0258ms total)
T20FC 000:310 JLINK_CORE_GetFound()  returns 0x30000FF (0000ms, 0258ms total)
T20FC 000:310 JLINK_ReadMemU32(0xE000ED00, 0x0001 Items, ...) -- CPU is running -- CPU_ReadMem(4 bytes @ 0xE000ED00) - Data: 31 C2 2F 41  returns 0x01 (0001ms, 0259ms total)
T20FC 000:311 JLINK_SetResetType(JLINKARM_RESET_TYPE_NORMAL)  returns JLINKARM_RESET_TYPE_NORMAL (0000ms, 0259ms total)
T20FC 000:311 JLINK_Reset() -- CPU is running -- CPU_WriteMem(4 bytes @ 0xE000EDF0) -- CPU is running -- CPU_WriteMem(4 bytes @ 0xE000EDFC) >0x35 TIF> -- CPU is running -- CPU_WriteMem(4 bytes @ 0xE000ED0C) -- CPU is running -- CPU_ReadMem(4 bytes @ 0xE000EDF0) -- CPU is running -- CPU_ReadMem(4 bytes @ 0xE000EDF0) -- CPU is running -- CPU_WriteMem(4 bytes @ 0xE000EDF0) -- CPU is running -- CPU_WriteMem(4 bytes @ 0xE000EDFC) -- CPU is running -- CPU_ReadMem(4 bytes @ 0xE000EDF0)
 -- CPU_WriteMem(4 bytes @ 0xE0002000) -- CPU_ReadMem(4 bytes @ 0xE000EDFC) -- CPU_ReadMem(4 bytes @ 0xE0001000) (0020ms, 0279ms total)
T20FC 000:331 JLINK_Halt()  returns 0x00 (0000ms, 0279ms total)
T20FC 000:331 JLINK_IsHalted()  returns TRUE (0000ms, 0279ms total)
T20FC 000:331 JLINK_ReadMemU32(0xE000EDF0, 0x0001 Items, ...) -- CPU_ReadMem(4 bytes @ 0xE000EDF0) - Data: 03 00 03 00  returns 0x01 (0000ms, 0279ms total)
T20FC 000:331 JLINK_WriteU32(0xE000EDF0, 0xA05F0003) -- CPU_WriteMem(4 bytes @ 0xE000EDF0)  returns 0x00 (0001ms, 0280ms total)
T20FC 000:332 JLINK_WriteU32(0xE000EDFC, 0x01000000) -- CPU_WriteMem(4 bytes @ 0xE000EDFC)  returns 0x00 (0000ms, 0280ms total)
T20FC 000:342 JLINK_GetHWStatus(...)  returns 0x00 (0000ms, 0280ms total)
T20FC 000:350 JLINK_GetNumBPUnits(Type = 0xFFFFFF00)  returns 0x06 (0000ms, 0280ms total)
T20FC 000:350 JLINK_GetNumBPUnits(Type = 0xF0)  returns 0x2000 (0000ms, 0280ms total)
T20FC 000:350 JLINK_GetNumWPUnits()  returns 0x04 (0000ms, 0280ms total)
T20FC 000:357 JLINK_GetSpeed()  returns 0x3E8 (0000ms, 0280ms total)
T20FC 000:362 JLINK_ReadMemU32(0xE000E004, 0x0001 Items, ...) -- CPU_ReadMem(4 bytes @ 0xE000E004) - Data: 01 00 00 00  returns 0x01 (0001ms, 0281ms total)
T20FC 000:363 JLINK_ReadMemU32(0xE000E004, 0x0001 Items, ...) -- CPU_ReadMem(4 bytes @ 0xE000E004) - Data: 01 00 00 00  returns 0x01 (0001ms, 0282ms total)
T20FC 000:364 JLINK_WriteMem(0xE0001000, 0x001C Bytes, ...) - Data: 01 00 00 00 00 00 00 00 00 00 00 00 00 00 00 00 ... -- CPU_WriteMem(28 bytes @ 0xE0001000)  returns 0x1C (0001ms, 0283ms total)
T20FC 000:365 JLINK_ReadMem (0xE0001000, 0x001C Bytes, ...) -- CPU_ReadMem(28 bytes @ 0xE0001000) - Data: 01 00 00 40 00 00 00 00 00 00 00 00 00 00 00 00 ...  returns 0x00 (0001ms, 0284ms total)
T20FC 000:366 JLINK_Halt()  returns 0x00 (0000ms, 0284ms total)
T20FC 000:366 JLINK_IsHalted()  returns TRUE (0000ms, 0284ms total)
T20FC 000:367 JLINK_WriteMem(0x20001000, 0x010C Bytes, ...) - Data: 00 BE 0A E0 0D 78 2D 06 68 40 08 24 40 00 00 D3 ... -- CPU_WriteMem(268 bytes @ 0x20001000)  returns 0x10C (0005ms, 0289ms total)
T20FC 000:372 JLINK_WriteReg(R0, 0x00000000)  returns 0x00 (0000ms, 0289ms total)
T20FC 000:372 JLINK_WriteReg(R1, 0x01312D00)  returns 0x00 (0000ms, 0289ms total)
T20FC 000:372 JLINK_WriteReg(R2, 0x00000001)  returns 0x00 (0000ms, 0289ms total)
T20FC 000:372 JLINK_WriteReg(R3, 0x00000000)  returns 0x00 (0000ms, 0289ms total)
T20FC 000:372 JLINK_WriteReg(R4, 0x00000000)  returns 0x00 (0000ms, 0289ms total)
T20FC 000:372 JLINK_WriteReg(R5, 0x00000000)  returns 0x00 (0000ms, 0289ms total)
T20FC 000:372 JLINK_WriteReg(R6, 0x00000000)  returns 0x00 (0000ms, 0289ms total)
T20FC 000:372 JLINK_WriteReg(R7, 0x00000000)  returns 0x00 (0000ms, 0289ms total)
T20FC 000:372 JLINK_WriteReg(R8, 0x00000000)  returns 0x00 (0000ms, 0289ms total)
T20FC 000:372 JLINK_WriteReg(R9, 0x20001108)  returns 0x00 (0000ms, 0289ms total)
T20FC 000:372 JLINK_WriteReg(R10, 0x00000000)  returns 0x00 (0000ms, 0289ms total)
T20FC 000:372 JLINK_WriteReg(R11, 0x00000000)  returns 0x00 (0000ms, 0289ms total)
T20FC 000:372 JLINK_WriteReg(R12, 0x00000000)  returns 0x00 (0000ms, 0289ms total)
T20FC 000:372 JLINK_WriteReg(R13 (SP), 0x20001800)  returns 0x00 (0000ms, 0289ms total)
T20FC 000:372 JLINK_WriteReg(R14, 0x20001001)  returns 0x00 (0000ms, 0289ms total)
T20FC 000:372 JLINK_WriteReg(R15 (PC), 0x20001038)  returns 0x00 (0000ms, 0289ms total)
T20FC 000:372 JLINK_WriteReg(XPSR, 0x01000000)  returns 0x00 (0000ms, 0289ms total)
T20FC 000:372 JLINK_WriteReg(MSP, 0x20001800)  returns 0x00 (0000ms, 0289ms total)
T20FC 000:372 JLINK_WriteReg(PSP, 0x20001800)  returns 0x00 (0000ms, 0289ms total)
T20FC 000:372 JLINK_WriteReg(CFBP, 0x00000000)  returns 0x00 (0000ms, 0289ms total)
T20FC 000:372 JLINK_SetBPEx(Addr = 0x20001000, Type = 0xFFFFFFF2) -- CPU_ReadMem(2 bytes @ 0x20001000)  returns 0x00000001 (0001ms, 0290ms total)
T20FC 000:373 JLINK_Go() -- CPU_WriteMem(2 bytes @ 0x20001000) -- CPU_ReadMem(4 bytes @ 0xE0001000) -- CPU_WriteMem(4 bytes @ 0xE0002008) -- CPU_WriteMem(4 bytes @ 0xE000200C) -- CPU_WriteMem(4 bytes @ 0xE0002010) -- CPU_WriteMem(4 bytes @ 0xE0002014) -- CPU_WriteMem(4 bytes @ 0xE0002018) -- CPU_WriteMem(4 bytes @ 0xE000201C) -- CPU_WriteMem(4 bytes @ 0xE0001004) (0006ms, 0296ms total)
T20FC 000:379 JLINK_IsHalted() -- CPU_ReadMem(2 bytes @ 0x20001000)  returns TRUE (0006ms, 0302ms total)
T20FC 000:385 JLINK_ReadReg(R15 (PC))  returns 0x20001000 (0001ms, 0297ms total)
T20FC 000:386 JLINK_ClrBPEx(BPHandle = 0x00000001)  returns 0x00 (0000ms, 0297ms total)
T20FC 000:386 JLINK_ReadReg(R0)  returns 0x00000000 (0000ms, 0297ms total)
T20FC 000:386 JLINK_WriteReg(R0, 0x00000000)  returns 0x00 (0000ms, 0297ms total)
T20FC 000:386 JLINK_WriteReg(R1, 0x00000400)  returns 0x00 (0000ms, 0297ms total)
T20FC 000:386 JLINK_WriteReg(R2, 0x000000FF)  returns 0x00 (0000ms, 0297ms total)
T20FC 000:386 JLINK_WriteReg(R3, 0x00000000)  returns 0x00 (0000ms, 0297ms total)
T20FC 000:386 JLINK_WriteReg(R4, 0x00000000)  returns 0x00 (0000ms, 0297ms total)
T20FC 000:386 JLINK_WriteReg(R5, 0x00000000)  returns 0x00 (0000ms, 0297ms total)
T20FC 000:386 JLINK_WriteReg(R6, 0x00000000)  returns 0x00 (0000ms, 0297ms total)
T20FC 000:386 JLINK_WriteReg(R7, 0x00000000)  returns 0x00 (0000ms, 0297ms total)
T20FC 000:386 JLINK_WriteReg(R8, 0x00000000)  returns 0x00 (0000ms, 0297ms total)
T20FC 000:386 JLINK_WriteReg(R9, 0x20001108)  returns 0x00 (0000ms, 0297ms total)
T20FC 000:386 JLINK_WriteReg(R10, 0x00000000)  returns 0x00 (0000ms, 0297ms total)
T20FC 000:386 JLINK_WriteReg(R11, 0x00000000)  returns 0x00 (0000ms, 0297ms total)
T20FC 000:386 JLINK_WriteReg(R12, 0x00000000)  returns 0x00 (0000ms, 0297ms total)
T20FC 000:386 JLINK_WriteReg(R13 (SP), 0x20001800)  returns 0x00 (0000ms, 0297ms total)
T20FC 000:386 JLINK_WriteReg(R14, 0x20001001)  returns 0x00 (0000ms, 0297ms total)
T20FC 000:386 JLINK_WriteReg(R15 (PC), 0x20001020)  returns 0x00 (0000ms, 0297ms total)
T20FC 000:386 JLINK_WriteReg(XPSR, 0x01000000)  returns 0x00 (0000ms, 0297ms total)
T20FC 000:386 JLINK_WriteReg(MSP, 0x20001800)  returns 0x00 (0000ms, 0297ms total)
T20FC 000:386 JLINK_WriteReg(PSP, 0x20001800)  returns 0x00 (0000ms, 0297ms total)
T20FC 000:386 JLINK_WriteReg(CFBP, 0x00000000)  returns 0x00 (0000ms, 0297ms total)
T20FC 000:386 JLINK_SetBPEx(Addr = 0x20001000, Type = 0xFFFFFFF2)  returns 0x00000002 (0000ms, 0297ms total)
T20FC 000:386 JLINK_Go() -- CPU_ReadMem(4 bytes @ 0xE0001000) (0003ms, 0300ms total)
T20FC 000:389 JLINK_IsHalted() -- CPU_ReadMem(2 bytes @ 0x20001000)  returns TRUE (0006ms, 0306ms total)
T20FC 000:395 JLINK_ReadReg(R15 (PC))  returns 0x20001000 (0000ms, 0300ms total)
T20FC 000:395 JLINK_ClrBPEx(BPHandle = 0x00000002)  returns 0x00 (0000ms, 0300ms total)
T20FC 000:395 JLINK_ReadReg(R0)  returns 0x00000001 (0000ms, 0300ms total)
T20FC 000:395 JLINK_WriteReg(R0, 0x00000000)  returns 0x00 (0000ms, 0300ms total)
T20FC 000:395 JLINK_WriteReg(R1, 0x00000400)  returns 0x00 (0000ms, 0300ms total)
T20FC 000:395 JLINK_WriteReg(R2, 0x000000FF)  returns 0x00 (0000ms, 0300ms total)
T20FC 000:395 JLINK_WriteReg(R3, 0x00000000)  returns 0x00 (0000ms, 0300ms total)
T20FC 000:395 JLINK_WriteReg(R4, 0x00000000)  returns 0x00 (0000ms, 0300ms total)
T20FC 000:395 JLINK_WriteReg(R5, 0x00000000)  returns 0x00 (0000ms, 0300ms total)
T20FC 000:395 JLINK_WriteReg(R6, 0x00000000)  returns 0x00 (0000ms, 0300ms total)
T20FC 000:395 JLINK_WriteReg(R7, 0x00000000)  returns 0x00 (0000ms, 0300ms total)
T20FC 000:395 JLINK_WriteReg(R8, 0x00000000)  returns 0x00 (0000ms, 0300ms total)
T20FC 000:395 JLINK_WriteReg(R9, 0x20001108)  returns 0x00 (0000ms, 0300ms total)
T20FC 000:395 JLINK_WriteReg(R10, 0x00000000)  returns 0x00 (0000ms, 0300ms total)
T20FC 000:395 JLINK_WriteReg(R11, 0x00000000)  returns 0x00 (0000ms, 0300ms total)
T20FC 000:395 JLINK_WriteReg(R12, 0x00000000)  returns 0x00 (0000ms, 0300ms total)
T20FC 000:395 JLINK_WriteReg(R13 (SP), 0x20001800)  returns 0x00 (0000ms, 0300ms total)
T20FC 000:395 JLINK_WriteReg(R14, 0x20001001)  returns 0x00 (0000ms, 0300ms total)
T20FC 000:395 JLINK_WriteReg(R15 (PC), 0x20001070)  returns 0x00 (0000ms, 0300ms total)
T20FC 000:395 JLINK_WriteReg(XPSR, 0x01000000)  returns 0x00 (0000ms, 0300ms total)
T20FC 000:395 JLINK_WriteReg(MSP, 0x20001800)  returns 0x00 (0000ms, 0300ms total)
T20FC 000:395 JLINK_WriteReg(PSP, 0x20001800)  returns 0x00 (0000ms, 0300ms total)
T20FC 000:395 JLINK_WriteReg(CFBP, 0x00000000)  returns 0x00 (0000ms, 0300ms total)
T20FC 000:395 JLINK_SetBPEx(Addr = 0x20001000, Type = 0xFFFFFFF2)  returns 0x00000003 (0000ms, 0300ms total)
T20FC 000:395 JLINK_Go() -- CPU_ReadMem(4 bytes @ 0xE0001000) (0003ms, 0303ms total)
T20FC 000:398 JLINK_IsHalted()  returns FALSE (0000ms, 0303ms total)
T20FC 000:468 JLINK_IsHalted() -- CPU_ReadMem(2 bytes @ 0x20001000)  returns TRUE (0006ms, 0309ms total)
T20FC 000:474 JLINK_ReadReg(R15 (PC))  returns 0x20001000 (0000ms, 0303ms total)
T20FC 000:474 JLINK_ClrBPEx(BPHandle = 0x00000003)  returns 0x00 (0000ms, 0303ms total)
T20FC 000:474 JLINK_ReadReg(R0)  returns 0x00000000 (0000ms, 0303ms total)
T20FC 000:475 JLINK_WriteReg(R0, 0x00000400)  returns 0x00 (0000ms, 0303ms total)
T20FC 000:475 JLINK_WriteReg(R1, 0x00000400)  returns 0x00 (0000ms, 0303ms total)
T20FC 000:475 JLINK_WriteReg(R2, 0x000000FF)  returns 0x00 (0000ms, 0303ms total)
T20FC 000:475 JLINK_WriteReg(R3, 0x00000000)  returns 0x00 (0000ms, 0303ms total)
T20FC 000:475 JLINK_WriteReg(R4, 0x00000000)  returns 0x00 (0000ms, 0303ms total)
T20FC 000:475 JLINK_WriteReg(R5, 0x00000000)  returns 0x00 (0000ms, 0303ms total)
T20FC 000:475 JLINK_WriteReg(R6, 0x00000000)  returns 0x00 (0000ms, 0303ms total)
T20FC 000:475 JLINK_WriteReg(R7, 0x00000000)  returns 0x00 (0000ms, 0303ms total)
T20FC 000:475 JLINK_WriteReg(R8, 0x00000000)  returns 0x00 (0000ms, 0303ms total)
T20FC 000:475 JLINK_WriteReg(R9, 0x20001108)  returns 0x00 (0000ms, 0303ms total)
T20FC 000:475 JLINK_WriteReg(R10, 0x00000000)  returns 0x00 (0000ms, 0303ms total)
T20FC 000:475 JLINK_WriteReg(R11, 0x00000000)  returns 0x00 (0000ms, 0303ms total)
T20FC 000:475 JLINK_WriteReg(R12, 0x00000000)  returns 0x00 (0000ms, 0303ms total)
T20FC 000:475 JLINK_WriteReg(R13 (SP), 0x20001800)  returns 0x00 (0000ms, 0303ms total)
T20FC 000:475 JLINK_WriteReg(R14, 0x20001001)  returns 0x00 (0000ms, 0303ms total)
T20FC 000:475 JLINK_WriteReg(R15 (PC), 0x20001020)  returns 0x00 (0000ms, 0303ms total)
T20FC 000:475 JLINK_WriteReg(XPSR, 0x01000000)  returns 0x00 (0000ms, 0303ms total)
T20FC 000:475 JLINK_WriteReg(MSP, 0x20001800)  returns 0x00 (0000ms, 0303ms total)
T20FC 000:475 JLINK_WriteReg(PSP, 0x20001800)  returns 0x00 (0000ms, 0303ms total)
T20FC 000:475 JLINK_WriteReg(CFBP, 0x00000000)  returns 0x00 (0000ms, 0303ms total)
T20FC 000:475 JLINK_SetBPEx(Addr = 0x20001000, Type = 0xFFFFFFF2)  returns 0x00000004 (0000ms, 0303ms total)
T20FC 000:475 JLINK_Go() -- CPU_ReadMem(4 bytes @ 0xE0001000) (0003ms, 0306ms total)
T20FC 000:478 JLINK_IsHalted() -- CPU_ReadMem(2 bytes @ 0x20001000)  returns TRUE (0007ms, 0313ms total)
T20FC 000:485 JLINK_ReadReg(R15 (PC))  returns 0x20001000 (0000ms, 0306ms total)
T20FC 000:485 JLINK_ClrBPEx(BPHandle = 0x00000004)  returns 0x00 (0000ms, 0306ms total)
T20FC 000:485 JLINK_ReadReg(R0)  returns 0x00000001 (0000ms, 0306ms total)
T20FC 000:485 JLINK_WriteReg(R0, 0x00000400)  returns 0x00 (0000ms, 0306ms total)
T20FC 000:485 JLINK_WriteReg(R1, 0x00000400)  returns 0x00 (0000ms, 0306ms total)
T20FC 000:485 JLINK_WriteReg(R2, 0x000000FF)  returns 0x00 (0000ms, 0306ms total)
T20FC 000:485 JLINK_WriteReg(R3, 0x00000000)  returns 0x00 (0000ms, 0306ms total)
T20FC 000:485 JLINK_WriteReg(R4, 0x00000000)  returns 0x00 (0000ms, 0306ms total)
T20FC 000:485 JLINK_WriteReg(R5, 0x00000000)  returns 0x00 (0000ms, 0306ms total)
T20FC 000:485 JLINK_WriteReg(R6, 0x00000000)  returns 0x00 (0000ms, 0306ms total)
T20FC 000:485 JLINK_WriteReg(R7, 0x00000000)  returns 0x00 (0000ms, 0306ms total)
T20FC 000:485 JLINK_WriteReg(R8, 0x00000000)  returns 0x00 (0000ms, 0306ms total)
T20FC 000:485 JLINK_WriteReg(R9, 0x20001108)  returns 0x00 (0000ms, 0306ms total)
T20FC 000:485 JLINK_WriteReg(R10, 0x00000000)  returns 0x00 (0000ms, 0306ms total)
T20FC 000:485 JLINK_WriteReg(R11, 0x00000000)  returns 0x00 (0000ms, 0306ms total)
T20FC 000:485 JLINK_WriteReg(R12, 0x00000000)  returns 0x00 (0000ms, 0306ms total)
T20FC 000:485 JLINK_WriteReg(R13 (SP), 0x20001800)  returns 0x00 (0000ms, 0306ms total)
T20FC 000:485 JLINK_WriteReg(R14, 0x20001001)  returns 0x00 (0000ms, 0306ms total)
T20FC 000:485 JLINK_WriteReg(R15 (PC), 0x20001070)  returns 0x00 (0000ms, 0306ms total)
T20FC 000:485 JLINK_WriteReg(XPSR, 0x01000000)  returns 0x00 (0000ms, 0306ms total)
T20FC 000:485 JLINK_WriteReg(MSP, 0x20001800)  returns 0x00 (0000ms, 0306ms total)
T20FC 000:485 JLINK_WriteReg(PSP, 0x20001800)  returns 0x00 (0000ms, 0306ms total)
T20FC 000:485 JLINK_WriteReg(CFBP, 0x00000000)  returns 0x00 (0000ms, 0306ms total)
T20FC 000:485 JLINK_SetBPEx(Addr = 0x20001000, Type = 0xFFFFFFF2)  returns 0x00000005 (0000ms, 0306ms total)
T20FC 000:485 JLINK_Go() -- CPU_ReadMem(4 bytes @ 0xE0001000) (0003ms, 0309ms total)
T20FC 000:488 JLINK_IsHalted()  returns FALSE (0000ms, 0309ms total)
T20FC 000:495 JLINK_IsHalted()  returns FALSE (0001ms, 0310ms total)
T20FC 000:497 JLINK_IsHalted()  returns FALSE (0001ms, 0310ms total)
T20FC 000:500 JLINK_IsHalted()  returns FALSE (0001ms, 0310ms total)
T20FC 000:503 JLINK_IsHalted()  returns FALSE (0000ms, 0309ms total)
T20FC 000:528 JLINK_IsHalted() -- CPU_ReadMem(2 bytes @ 0x20001000)  returns TRUE (0006ms, 0315ms total)
T20FC 000:534 JLINK_ReadReg(R15 (PC))  returns 0x20001000 (0000ms, 0309ms total)
T20FC 000:534 JLINK_ClrBPEx(BPHandle = 0x00000005)  returns 0x00 (0000ms, 0309ms total)
T20FC 000:534 JLINK_ReadReg(R0)  returns 0x00000000 (0000ms, 0309ms total)
T20FC 000:534 JLINK_WriteReg(R0, 0x00000800)  returns 0x00 (0000ms, 0309ms total)
T20FC 000:534 JLINK_WriteReg(R1, 0x00000400)  returns 0x00 (0000ms, 0309ms total)
T20FC 000:534 JLINK_WriteReg(R2, 0x000000FF)  returns 0x00 (0000ms, 0309ms total)
T20FC 000:534 JLINK_WriteReg(R3, 0x00000000)  returns 0x00 (0000ms, 0309ms total)
T20FC 000:534 JLINK_WriteReg(R4, 0x00000000)  returns 0x00 (0000ms, 0309ms total)
T20FC 000:534 JLINK_WriteReg(R5, 0x00000000)  returns 0x00 (0000ms, 0309ms total)
T20FC 000:534 JLINK_WriteReg(R6, 0x00000000)  returns 0x00 (0000ms, 0309ms total)
T20FC 000:534 JLINK_WriteReg(R7, 0x00000000)  returns 0x00 (0000ms, 0309ms total)
T20FC 000:534 JLINK_WriteReg(R8, 0x00000000)  returns 0x00 (0000ms, 0309ms total)
T20FC 000:534 JLINK_WriteReg(R9, 0x20001108)  returns 0x00 (0000ms, 0309ms total)
T20FC 000:534 JLINK_WriteReg(R10, 0x00000000)  returns 0x00 (0001ms, 0310ms total)
T20FC 000:535 JLINK_WriteReg(R11, 0x00000000)  returns 0x00 (0000ms, 0310ms total)
T20FC 000:535 JLINK_WriteReg(R12, 0x00000000)  returns 0x00 (0000ms, 0310ms total)
T20FC 000:535 JLINK_WriteReg(R13 (SP), 0x20001800)  returns 0x00 (0000ms, 0310ms total)
T20FC 000:535 JLINK_WriteReg(R14, 0x20001001)  returns 0x00 (0000ms, 0310ms total)
T20FC 000:535 JLINK_WriteReg(R15 (PC), 0x20001020)  returns 0x00 (0000ms, 0310ms total)
T20FC 000:535 JLINK_WriteReg(XPSR, 0x01000000)  returns 0x00 (0000ms, 0310ms total)
T20FC 000:535 JLINK_WriteReg(MSP, 0x20001800)  returns 0x00 (0000ms, 0310ms total)
T20FC 000:535 JLINK_WriteReg(PSP, 0x20001800)  returns 0x00 (0000ms, 0310ms total)
T20FC 000:535 JLINK_WriteReg(CFBP, 0x00000000)  returns 0x00 (0000ms, 0310ms total)
T20FC 000:535 JLINK_SetBPEx(Addr = 0x20001000, Type = 0xFFFFFFF2)  returns 0x00000006 (0000ms, 0310ms total)
T20FC 000:535 JLINK_Go() -- CPU_ReadMem(4 bytes @ 0xE0001000) (0003ms, 0313ms total)
T20FC 000:538 JLINK_IsHalted() -- CPU_ReadMem(2 bytes @ 0x20001000)  returns TRUE (0006ms, 0319ms total)
T20FC 000:544 JLINK_ReadReg(R15 (PC))  returns 0x20001000 (0000ms, 0313ms total)
T20FC 000:544 JLINK_ClrBPEx(BPHandle = 0x00000006)  returns 0x00 (0000ms, 0313ms total)
T20FC 000:544 JLINK_ReadReg(R0)  returns 0x00000001 (0000ms, 0313ms total)
T20FC 000:544 JLINK_WriteReg(R0, 0x00000800)  returns 0x00 (0000ms, 0313ms total)
T20FC 000:544 JLINK_WriteReg(R1, 0x00000400)  returns 0x00 (0000ms, 0313ms total)
T20FC 000:544 JLINK_WriteReg(R2, 0x000000FF)  returns 0x00 (0000ms, 0313ms total)
T20FC 000:544 JLINK_WriteReg(R3, 0x00000000)  returns 0x00 (0000ms, 0313ms total)
T20FC 000:544 JLINK_WriteReg(R4, 0x00000000)  returns 0x00 (0000ms, 0313ms total)
T20FC 000:544 JLINK_WriteReg(R5, 0x00000000)  returns 0x00 (0000ms, 0313ms total)
T20FC 000:544 JLINK_WriteReg(R6, 0x00000000)  returns 0x00 (0000ms, 0313ms total)
T20FC 000:544 JLINK_WriteReg(R7, 0x00000000)  returns 0x00 (0000ms, 0313ms total)
T20FC 000:544 JLINK_WriteReg(R8, 0x00000000)  returns 0x00 (0000ms, 0313ms total)
T20FC 000:544 JLINK_WriteReg(R9, 0x20001108)  returns 0x00 (0000ms, 0313ms total)
T20FC 000:544 JLINK_WriteReg(R10, 0x00000000)  returns 0x00 (0000ms, 0313ms total)
T20FC 000:544 JLINK_WriteReg(R11, 0x00000000)  returns 0x00 (0000ms, 0313ms total)
T20FC 000:544 JLINK_WriteReg(R12, 0x00000000)  returns 0x00 (0000ms, 0313ms total)
T20FC 000:544 JLINK_WriteReg(R13 (SP), 0x20001800)  returns 0x00 (0000ms, 0313ms total)
T20FC 000:544 JLINK_WriteReg(R14, 0x20001001)  returns 0x00 (0000ms, 0313ms total)
T20FC 000:544 JLINK_WriteReg(R15 (PC), 0x20001070)  returns 0x00 (0000ms, 0313ms total)
T20FC 000:544 JLINK_WriteReg(XPSR, 0x01000000)  returns 0x00 (0000ms, 0313ms total)
T20FC 000:544 JLINK_WriteReg(MSP, 0x20001800)  returns 0x00 (0000ms, 0313ms total)
T20FC 000:544 JLINK_WriteReg(PSP, 0x20001800)  returns 0x00 (0000ms, 0313ms total)
T20FC 000:544 JLINK_WriteReg(CFBP, 0x00000000)  returns 0x00 (0000ms, 0313ms total)
T20FC 000:544 JLINK_SetBPEx(Addr = 0x20001000, Type = 0xFFFFFFF2)  returns 0x00000007 (0000ms, 0313ms total)
T20FC 000:544 JLINK_Go() -- CPU_ReadMem(4 bytes @ 0xE0001000) (0003ms, 0316ms total)
T20FC 000:547 JLINK_IsHalted()  returns FALSE (0000ms, 0316ms total)
T20FC 000:551 JLINK_IsHalted()  returns FALSE (0001ms, 0317ms total)
T20FC 000:553 JLINK_IsHalted()  returns FALSE (0001ms, 0317ms total)
T20FC 000:555 JLINK_IsHalted()  returns FALSE (0001ms, 0317ms total)
T20FC 000:557 JLINK_IsHalted()  returns FALSE (0001ms, 0317ms total)
T20FC 000:559 JLINK_IsHalted()  returns FALSE (0001ms, 0317ms total)
T20FC 000:561 JLINK_IsHalted()  returns FALSE (0001ms, 0317ms total)
T20FC 000:563 JLINK_IsHalted()  returns FALSE (0001ms, 0317ms total)
T20FC 000:565 JLINK_IsHalted()  returns FALSE (0001ms, 0317ms total)
T20FC 000:567 JLINK_IsHalted()  returns FALSE (0001ms, 0317ms total)
T20FC 000:569 JLINK_IsHalted() -- CPU_ReadMem(2 bytes @ 0x20001000)  returns TRUE (0006ms, 0322ms total)
T20FC 000:575 JLINK_ReadReg(R15 (PC))  returns 0x20001000 (0000ms, 0316ms total)
T20FC 000:575 JLINK_ClrBPEx(BPHandle = 0x00000007)  returns 0x00 (0000ms, 0316ms total)
T20FC 000:575 JLINK_ReadReg(R0)  returns 0x00000000 (0000ms, 0316ms total)
T20FC 000:576 JLINK_WriteReg(R0, 0x00000C00)  returns 0x00 (0000ms, 0316ms total)
T20FC 000:576 JLINK_WriteReg(R1, 0x00000400)  returns 0x00 (0000ms, 0316ms total)
T20FC 000:576 JLINK_WriteReg(R2, 0x000000FF)  returns 0x00 (0000ms, 0316ms total)
T20FC 000:576 JLINK_WriteReg(R3, 0x00000000)  returns 0x00 (0000ms, 0316ms total)
T20FC 000:576 JLINK_WriteReg(R4, 0x00000000)  returns 0x00 (0000ms, 0316ms total)
T20FC 000:576 JLINK_WriteReg(R5, 0x00000000)  returns 0x00 (0000ms, 0316ms total)
T20FC 000:576 JLINK_WriteReg(R6, 0x00000000)  returns 0x00 (0000ms, 0316ms total)
T20FC 000:576 JLINK_WriteReg(R7, 0x00000000)  returns 0x00 (0000ms, 0316ms total)
T20FC 000:576 JLINK_WriteReg(R8, 0x00000000)  returns 0x00 (0000ms, 0316ms total)
T20FC 000:576 JLINK_WriteReg(R9, 0x20001108)  returns 0x00 (0000ms, 0316ms total)
T20FC 000:576 JLINK_WriteReg(R10, 0x00000000)  returns 0x00 (0000ms, 0316ms total)
T20FC 000:576 JLINK_WriteReg(R11, 0x00000000)  returns 0x00 (0000ms, 0316ms total)
T20FC 000:576 JLINK_WriteReg(R12, 0x00000000)  returns 0x00 (0000ms, 0316ms total)
T20FC 000:576 JLINK_WriteReg(R13 (SP), 0x20001800)  returns 0x00 (0000ms, 0316ms total)
T20FC 000:576 JLINK_WriteReg(R14, 0x20001001)  returns 0x00 (0000ms, 0316ms total)
T20FC 000:576 JLINK_WriteReg(R15 (PC), 0x20001020)  returns 0x00 (0000ms, 0316ms total)
T20FC 000:576 JLINK_WriteReg(XPSR, 0x01000000)  returns 0x00 (0000ms, 0316ms total)
T20FC 000:576 JLINK_WriteReg(MSP, 0x20001800)  returns 0x00 (0000ms, 0316ms total)
T20FC 000:576 JLINK_WriteReg(PSP, 0x20001800)  returns 0x00 (0000ms, 0316ms total)
T20FC 000:576 JLINK_WriteReg(CFBP, 0x00000000)  returns 0x00 (0000ms, 0316ms total)
T20FC 000:576 JLINK_SetBPEx(Addr = 0x20001000, Type = 0xFFFFFFF2)  returns 0x00000008 (0000ms, 0316ms total)
T20FC 000:576 JLINK_Go() -- CPU_ReadMem(4 bytes @ 0xE0001000) (0003ms, 0319ms total)
T20FC 000:579 JLINK_IsHalted() -- CPU_ReadMem(2 bytes @ 0x20001000)  returns TRUE (0007ms, 0326ms total)
T20FC 000:586 JLINK_ReadReg(R15 (PC))  returns 0x20001000 (0000ms, 0319ms total)
T20FC 000:586 JLINK_ClrBPEx(BPHandle = 0x00000008)  returns 0x00 (0000ms, 0319ms total)
T20FC 000:586 JLINK_ReadReg(R0)  returns 0x00000001 (0000ms, 0319ms total)
T20FC 000:586 JLINK_WriteReg(R0, 0x00000C00)  returns 0x00 (0000ms, 0319ms total)
T20FC 000:586 JLINK_WriteReg(R1, 0x00000400)  returns 0x00 (0000ms, 0319ms total)
T20FC 000:586 JLINK_WriteReg(R2, 0x000000FF)  returns 0x00 (0000ms, 0319ms total)
T20FC 000:586 JLINK_WriteReg(R3, 0x00000000)  returns 0x00 (0000ms, 0319ms total)
T20FC 000:586 JLINK_WriteReg(R4, 0x00000000)  returns 0x00 (0000ms, 0319ms total)
T20FC 000:586 JLINK_WriteReg(R5, 0x00000000)  returns 0x00 (0000ms, 0319ms total)
T20FC 000:586 JLINK_WriteReg(R6, 0x00000000)  returns 0x00 (0000ms, 0319ms total)
T20FC 000:586 JLINK_WriteReg(R7, 0x00000000)  returns 0x00 (0000ms, 0319ms total)
T20FC 000:586 JLINK_WriteReg(R8, 0x00000000)  returns 0x00 (0000ms, 0319ms total)
T20FC 000:586 JLINK_WriteReg(R9, 0x20001108)  returns 0x00 (0000ms, 0319ms total)
T20FC 000:586 JLINK_WriteReg(R10, 0x00000000)  returns 0x00 (0000ms, 0319ms total)
T20FC 000:586 JLINK_WriteReg(R11, 0x00000000)  returns 0x00 (0000ms, 0319ms total)
T20FC 000:586 JLINK_WriteReg(R12, 0x00000000)  returns 0x00 (0000ms, 0319ms total)
T20FC 000:586 JLINK_WriteReg(R13 (SP), 0x20001800)  returns 0x00 (0000ms, 0319ms total)
T20FC 000:586 JLINK_WriteReg(R14, 0x20001001)  returns 0x00 (0000ms, 0319ms total)
T20FC 000:586 JLINK_WriteReg(R15 (PC), 0x20001070)  returns 0x00 (0000ms, 0319ms total)
T20FC 000:586 JLINK_WriteReg(XPSR, 0x01000000)  returns 0x00 (0000ms, 0319ms total)
T20FC 000:586 JLINK_WriteReg(MSP, 0x20001800)  returns 0x00 (0000ms, 0319ms total)
T20FC 000:586 JLINK_WriteReg(PSP, 0x20001800)  returns 0x00 (0000ms, 0319ms total)
T20FC 000:586 JLINK_WriteReg(CFBP, 0x00000000)  returns 0x00 (0000ms, 0319ms total)
T20FC 000:586 JLINK_SetBPEx(Addr = 0x20001000, Type = 0xFFFFFFF2)  returns 0x00000009 (0000ms, 0319ms total)
T20FC 000:586 JLINK_Go() -- CPU_ReadMem(4 bytes @ 0xE0001000) (0002ms, 0321ms total)
T20FC 000:588 JLINK_IsHalted()  returns FALSE (0001ms, 0322ms total)
T20FC 000:590 JLINK_IsHalted()  returns FALSE (0001ms, 0322ms total)
T20FC 000:592 JLINK_IsHalted()  returns FALSE (0001ms, 0322ms total)
T20FC 000:598 JLINK_IsHalted()  returns FALSE (0001ms, 0322ms total)
T20FC 000:600 JLINK_IsHalted()  returns FALSE (0001ms, 0322ms total)
T20FC 000:602 JLINK_IsHalted()  returns FALSE (0000ms, 0321ms total)
T20FC 000:605 JLINK_IsHalted()  returns FALSE (0001ms, 0322ms total)
T20FC 000:607 JLINK_IsHalted()  returns FALSE (0001ms, 0322ms total)
T20FC 000:609 JLINK_IsHalted()  returns FALSE (0001ms, 0322ms total)
T20FC 000:634 JLINK_IsHalted() -- CPU_ReadMem(2 bytes @ 0x20001000)  returns TRUE (0006ms, 0327ms total)
T20FC 000:640 JLINK_ReadReg(R15 (PC))  returns 0x20001000 (0000ms, 0321ms total)
T20FC 000:640 JLINK_ClrBPEx(BPHandle = 0x00000009)  returns 0x00 (0000ms, 0321ms total)
T20FC 000:640 JLINK_ReadReg(R0)  returns 0x00000000 (0001ms, 0322ms total)
T20FC 000:641 JLINK_WriteReg(R0, 0x00001000)  returns 0x00 (0001ms, 0323ms total)
T20FC 000:642 JLINK_WriteReg(R1, 0x00000400)  returns 0x00 (0000ms, 0323ms total)
T20FC 000:642 JLINK_WriteReg(R2, 0x000000FF)  returns 0x00 (0000ms, 0323ms total)
T20FC 000:642 JLINK_WriteReg(R3, 0x00000000)  returns 0x00 (0000ms, 0323ms total)
T20FC 000:642 JLINK_WriteReg(R4, 0x00000000)  returns 0x00 (0000ms, 0323ms total)
T20FC 000:642 JLINK_WriteReg(R5, 0x00000000)  returns 0x00 (0000ms, 0323ms total)
T20FC 000:642 JLINK_WriteReg(R6, 0x00000000)  returns 0x00 (0000ms, 0323ms total)
T20FC 000:642 JLINK_WriteReg(R7, 0x00000000)  returns 0x00 (0000ms, 0323ms total)
T20FC 000:642 JLINK_WriteReg(R8, 0x00000000)  returns 0x00 (0000ms, 0323ms total)
T20FC 000:642 JLINK_WriteReg(R9, 0x20001108)  returns 0x00 (0000ms, 0323ms total)
T20FC 000:642 JLINK_WriteReg(R10, 0x00000000)  returns 0x00 (0000ms, 0323ms total)
T20FC 000:642 JLINK_WriteReg(R11, 0x00000000)  returns 0x00 (0000ms, 0323ms total)
T20FC 000:642 JLINK_WriteReg(R12, 0x00000000)  returns 0x00 (0000ms, 0323ms total)
T20FC 000:642 JLINK_WriteReg(R13 (SP), 0x20001800)  returns 0x00 (0000ms, 0323ms total)
T20FC 000:642 JLINK_WriteReg(R14, 0x20001001)  returns 0x00 (0000ms, 0323ms total)
T20FC 000:642 JLINK_WriteReg(R15 (PC), 0x20001020)  returns 0x00 (0000ms, 0323ms total)
T20FC 000:642 JLINK_WriteReg(XPSR, 0x01000000)  returns 0x00 (0000ms, 0323ms total)
T20FC 000:642 JLINK_WriteReg(MSP, 0x20001800)  returns 0x00 (0000ms, 0323ms total)
T20FC 000:642 JLINK_WriteReg(PSP, 0x20001800)  returns 0x00 (0000ms, 0323ms total)
T20FC 000:642 JLINK_WriteReg(CFBP, 0x00000000)  returns 0x00 (0000ms, 0323ms total)
T20FC 000:642 JLINK_SetBPEx(Addr = 0x20001000, Type = 0xFFFFFFF2)  returns 0x0000000A (0000ms, 0323ms total)
T20FC 000:642 JLINK_Go() -- CPU_ReadMem(4 bytes @ 0xE0001000) (0003ms, 0326ms total)
T20FC 000:645 JLINK_IsHalted() -- CPU_ReadMem(2 bytes @ 0x20001000)  returns TRUE (0006ms, 0332ms total)
T20FC 000:651 JLINK_ReadReg(R15 (PC))  returns 0x20001000 (0000ms, 0326ms total)
T20FC 000:651 JLINK_ClrBPEx(BPHandle = 0x0000000A)  returns 0x00 (0000ms, 0326ms total)
T20FC 000:651 JLINK_ReadReg(R0)  returns 0x00000001 (0000ms, 0326ms total)
T20FC 000:651 JLINK_WriteReg(R0, 0x00001000)  returns 0x00 (0000ms, 0326ms total)
T20FC 000:651 JLINK_WriteReg(R1, 0x00000400)  returns 0x00 (0000ms, 0326ms total)
T20FC 000:651 JLINK_WriteReg(R2, 0x000000FF)  returns 0x00 (0000ms, 0326ms total)
T20FC 000:651 JLINK_WriteReg(R3, 0x00000000)  returns 0x00 (0000ms, 0326ms total)
T20FC 000:651 JLINK_WriteReg(R4, 0x00000000)  returns 0x00 (0000ms, 0326ms total)
T20FC 000:651 JLINK_WriteReg(R5, 0x00000000)  returns 0x00 (0000ms, 0326ms total)
T20FC 000:651 JLINK_WriteReg(R6, 0x00000000)  returns 0x00 (0000ms, 0326ms total)
T20FC 000:651 JLINK_WriteReg(R7, 0x00000000)  returns 0x00 (0000ms, 0326ms total)
T20FC 000:651 JLINK_WriteReg(R8, 0x00000000)  returns 0x00 (0000ms, 0326ms total)
T20FC 000:651 JLINK_WriteReg(R9, 0x20001108)  returns 0x00 (0000ms, 0326ms total)
T20FC 000:651 JLINK_WriteReg(R10, 0x00000000)  returns 0x00 (0000ms, 0326ms total)
T20FC 000:651 JLINK_WriteReg(R11, 0x00000000)  returns 0x00 (0000ms, 0326ms total)
T20FC 000:651 JLINK_WriteReg(R12, 0x00000000)  returns 0x00 (0000ms, 0326ms total)
T20FC 000:651 JLINK_WriteReg(R13 (SP), 0x20001800)  returns 0x00 (0000ms, 0326ms total)
T20FC 000:651 JLINK_WriteReg(R14, 0x20001001)  returns 0x00 (0000ms, 0326ms total)
T20FC 000:651 JLINK_WriteReg(R15 (PC), 0x20001070)  returns 0x00 (0000ms, 0326ms total)
T20FC 000:651 JLINK_WriteReg(XPSR, 0x01000000)  returns 0x00 (0000ms, 0326ms total)
T20FC 000:651 JLINK_WriteReg(MSP, 0x20001800)  returns 0x00 (0000ms, 0326ms total)
T20FC 000:651 JLINK_WriteReg(PSP, 0x20001800)  returns 0x00 (0000ms, 0326ms total)
T20FC 000:651 JLINK_WriteReg(CFBP, 0x00000000)  returns 0x00 (0000ms, 0326ms total)
T20FC 000:651 JLINK_SetBPEx(Addr = 0x20001000, Type = 0xFFFFFFF2)  returns 0x0000000B (0000ms, 0326ms total)
T20FC 000:651 JLINK_Go() -- CPU_ReadMem(4 bytes @ 0xE0001000) (0003ms, 0329ms total)
T20FC 000:654 JLINK_IsHalted()  returns FALSE (0000ms, 0329ms total)
T20FC 000:659 JLINK_IsHalted()  returns FALSE (0000ms, 0329ms total)
T20FC 000:661 JLINK_IsHalted()  returns FALSE (0000ms, 0329ms total)
T20FC 000:663 JLINK_IsHalted()  returns FALSE (0000ms, 0329ms total)
T20FC 000:665 JLINK_IsHalted()  returns FALSE (0000ms, 0329ms total)
T20FC 000:667 JLINK_IsHalted()  returns FALSE (0000ms, 0329ms total)
T20FC 000:669 JLINK_IsHalted()  returns FALSE (0000ms, 0329ms total)
T20FC 000:671 JLINK_IsHalted()  returns FALSE (0000ms, 0329ms total)
T20FC 000:672 JLINK_IsHalted()  returns FALSE (0001ms, 0330ms total)
T20FC 000:674 JLINK_IsHalted()  returns FALSE (0001ms, 0330ms total)
T20FC 000:676 JLINK_IsHalted() -- CPU_ReadMem(2 bytes @ 0x20001000)  returns TRUE (0006ms, 0335ms total)
T20FC 000:683 JLINK_ReadReg(R15 (PC))  returns 0x20001000 (0000ms, 0329ms total)
T20FC 000:683 JLINK_ClrBPEx(BPHandle = 0x0000000B)  returns 0x00 (0000ms, 0329ms total)
T20FC 000:683 JLINK_ReadReg(R0)  returns 0x00000000 (0000ms, 0329ms total)
T20FC 000:683 JLINK_WriteReg(R0, 0x00001400)  returns 0x00 (0000ms, 0329ms total)
T20FC 000:683 JLINK_WriteReg(R1, 0x00000400)  returns 0x00 (0000ms, 0329ms total)
T20FC 000:683 JLINK_WriteReg(R2, 0x000000FF)  returns 0x00 (0000ms, 0329ms total)
T20FC 000:683 JLINK_WriteReg(R3, 0x00000000)  returns 0x00 (0000ms, 0329ms total)
T20FC 000:683 JLINK_WriteReg(R4, 0x00000000)  returns 0x00 (0000ms, 0329ms total)
T20FC 000:683 JLINK_WriteReg(R5, 0x00000000)  returns 0x00 (0000ms, 0329ms total)
T20FC 000:683 JLINK_WriteReg(R6, 0x00000000)  returns 0x00 (0000ms, 0329ms total)
T20FC 000:683 JLINK_WriteReg(R7, 0x00000000)  returns 0x00 (0000ms, 0329ms total)
T20FC 000:683 JLINK_WriteReg(R8, 0x00000000)  returns 0x00 (0000ms, 0329ms total)
T20FC 000:683 JLINK_WriteReg(R9, 0x20001108)  returns 0x00 (0000ms, 0329ms total)
T20FC 000:683 JLINK_WriteReg(R10, 0x00000000)  returns 0x00 (0000ms, 0329ms total)
T20FC 000:683 JLINK_WriteReg(R11, 0x00000000)  returns 0x00 (0000ms, 0329ms total)
T20FC 000:683 JLINK_WriteReg(R12, 0x00000000)  returns 0x00 (0000ms, 0329ms total)
T20FC 000:683 JLINK_WriteReg(R13 (SP), 0x20001800)  returns 0x00 (0000ms, 0329ms total)
T20FC 000:683 JLINK_WriteReg(R14, 0x20001001)  returns 0x00 (0000ms, 0329ms total)
T20FC 000:683 JLINK_WriteReg(R15 (PC), 0x20001020)  returns 0x00 (0000ms, 0329ms total)
T20FC 000:683 JLINK_WriteReg(XPSR, 0x01000000)  returns 0x00 (0000ms, 0329ms total)
T20FC 000:683 JLINK_WriteReg(MSP, 0x20001800)  returns 0x00 (0000ms, 0329ms total)
T20FC 000:683 JLINK_WriteReg(PSP, 0x20001800)  returns 0x00 (0000ms, 0329ms total)
T20FC 000:683 JLINK_WriteReg(CFBP, 0x00000000)  returns 0x00 (0000ms, 0329ms total)
T20FC 000:683 JLINK_SetBPEx(Addr = 0x20001000, Type = 0xFFFFFFF2)  returns 0x0000000C (0000ms, 0329ms total)
T20FC 000:683 JLINK_Go() -- CPU_ReadMem(4 bytes @ 0xE0001000) (0003ms, 0332ms total)
T20FC 000:686 JLINK_IsHalted() -- CPU_ReadMem(2 bytes @ 0x20001000)  returns TRUE (0007ms, 0339ms total)
T20FC 000:693 JLINK_ReadReg(R15 (PC))  returns 0x20001000 (0000ms, 0332ms total)
T20FC 000:693 JLINK_ClrBPEx(BPHandle = 0x0000000C)  returns 0x00 (0000ms, 0332ms total)
T20FC 000:693 JLINK_ReadReg(R0)  returns 0x00000001 (0000ms, 0332ms total)
T20FC 000:693 JLINK_WriteReg(R0, 0x00001400)  returns 0x00 (0000ms, 0332ms total)
T20FC 000:693 JLINK_WriteReg(R1, 0x00000400)  returns 0x00 (0000ms, 0332ms total)
T20FC 000:693 JLINK_WriteReg(R2, 0x000000FF)  returns 0x00 (0000ms, 0332ms total)
T20FC 000:693 JLINK_WriteReg(R3, 0x00000000)  returns 0x00 (0000ms, 0332ms total)
T20FC 000:693 JLINK_WriteReg(R4, 0x00000000)  returns 0x00 (0000ms, 0332ms total)
T20FC 000:693 JLINK_WriteReg(R5, 0x00000000)  returns 0x00 (0000ms, 0332ms total)
T20FC 000:693 JLINK_WriteReg(R6, 0x00000000)  returns 0x00 (0000ms, 0332ms total)
T20FC 000:693 JLINK_WriteReg(R7, 0x00000000)  returns 0x00 (0000ms, 0332ms total)
T20FC 000:693 JLINK_WriteReg(R8, 0x00000000)  returns 0x00 (0000ms, 0332ms total)
T20FC 000:693 JLINK_WriteReg(R9, 0x20001108)  returns 0x00 (0000ms, 0332ms total)
T20FC 000:693 JLINK_WriteReg(R10, 0x00000000)  returns 0x00 (0000ms, 0332ms total)
T20FC 000:693 JLINK_WriteReg(R11, 0x00000000)  returns 0x00 (0000ms, 0332ms total)
T20FC 000:693 JLINK_WriteReg(R12, 0x00000000)  returns 0x00 (0000ms, 0332ms total)
T20FC 000:693 JLINK_WriteReg(R13 (SP), 0x20001800)  returns 0x00 (0000ms, 0332ms total)
T20FC 000:693 JLINK_WriteReg(R14, 0x20001001)  returns 0x00 (0000ms, 0332ms total)
T20FC 000:693 JLINK_WriteReg(R15 (PC), 0x20001070)  returns 0x00 (0000ms, 0332ms total)
T20FC 000:693 JLINK_WriteReg(XPSR, 0x01000000)  returns 0x00 (0000ms, 0332ms total)
T20FC 000:693 JLINK_WriteReg(MSP, 0x20001800)  returns 0x00 (0000ms, 0332ms total)
T20FC 000:693 JLINK_WriteReg(PSP, 0x20001800)  returns 0x00 (0000ms, 0332ms total)
T20FC 000:693 JLINK_WriteReg(CFBP, 0x00000000)  returns 0x00 (0000ms, 0332ms total)
T20FC 000:693 JLINK_SetBPEx(Addr = 0x20001000, Type = 0xFFFFFFF2)  returns 0x0000000D (0000ms, 0332ms total)
T20FC 000:693 JLINK_Go() -- CPU_ReadMem(4 bytes @ 0xE0001000) (0002ms, 0334ms total)
T20FC 000:695 JLINK_IsHalted()  returns FALSE (0001ms, 0335ms total)
T20FC 000:697 JLINK_IsHalted()  returns FALSE (0001ms, 0335ms total)
T20FC 000:699 JLINK_IsHalted()  returns FALSE (0001ms, 0335ms total)
T20FC 000:701 JLINK_IsHalted()  returns FALSE (0001ms, 0335ms total)
T20FC 000:703 JLINK_IsHalted()  returns FALSE (0000ms, 0334ms total)
T20FC 000:710 JLINK_IsHalted()  returns FALSE (0001ms, 0335ms total)
T20FC 000:712 JLINK_IsHalted()  returns FALSE (0000ms, 0334ms total)
T20FC 000:714 JLINK_IsHalted()  returns FALSE (0001ms, 0335ms total)
T20FC 000:716 JLINK_IsHalted()  returns FALSE (0001ms, 0335ms total)
T20FC 000:739 JLINK_IsHalted() -- CPU_ReadMem(2 bytes @ 0x20001000)  returns TRUE (0006ms, 0340ms total)
T20FC 000:745 JLINK_ReadReg(R15 (PC))  returns 0x20001000 (0000ms, 0334ms total)
T20FC 000:745 JLINK_ClrBPEx(BPHandle = 0x0000000D)  returns 0x00 (0000ms, 0334ms total)
T20FC 000:745 JLINK_ReadReg(R0)  returns 0x00000000 (0000ms, 0334ms total)
T20FC 000:746 JLINK_WriteReg(R0, 0x00001800)  returns 0x00 (0000ms, 0334ms total)
T20FC 000:746 JLINK_WriteReg(R1, 0x00000400)  returns 0x00 (0000ms, 0334ms total)
T20FC 000:746 JLINK_WriteReg(R2, 0x000000FF)  returns 0x00 (0000ms, 0334ms total)
T20FC 000:746 JLINK_WriteReg(R3, 0x00000000)  returns 0x00 (0000ms, 0334ms total)
T20FC 000:746 JLINK_WriteReg(R4, 0x00000000)  returns 0x00 (0000ms, 0334ms total)
T20FC 000:746 JLINK_WriteReg(R5, 0x00000000)  returns 0x00 (0000ms, 0334ms total)
T20FC 000:746 JLINK_WriteReg(R6, 0x00000000)  returns 0x00 (0000ms, 0334ms total)
T20FC 000:746 JLINK_WriteReg(R7, 0x00000000)  returns 0x00 (0000ms, 0334ms total)
T20FC 000:746 JLINK_WriteReg(R8, 0x00000000)  returns 0x00 (0000ms, 0334ms total)
T20FC 000:746 JLINK_WriteReg(R9, 0x20001108)  returns 0x00 (0000ms, 0334ms total)
T20FC 000:746 JLINK_WriteReg(R10, 0x00000000)  returns 0x00 (0000ms, 0334ms total)
T20FC 000:746 JLINK_WriteReg(R11, 0x00000000)  returns 0x00 (0000ms, 0334ms total)
T20FC 000:746 JLINK_WriteReg(R12, 0x00000000)  returns 0x00 (0000ms, 0334ms total)
T20FC 000:746 JLINK_WriteReg(R13 (SP), 0x20001800)  returns 0x00 (0000ms, 0334ms total)
T20FC 000:746 JLINK_WriteReg(R14, 0x20001001)  returns 0x00 (0000ms, 0334ms total)
T20FC 000:746 JLINK_WriteReg(R15 (PC), 0x20001020)  returns 0x00 (0000ms, 0334ms total)
T20FC 000:746 JLINK_WriteReg(XPSR, 0x01000000)  returns 0x00 (0000ms, 0334ms total)
T20FC 000:746 JLINK_WriteReg(MSP, 0x20001800)  returns 0x00 (0000ms, 0334ms total)
T20FC 000:746 JLINK_WriteReg(PSP, 0x20001800)  returns 0x00 (0000ms, 0334ms total)
T20FC 000:746 JLINK_WriteReg(CFBP, 0x00000000)  returns 0x00 (0000ms, 0334ms total)
T20FC 000:746 JLINK_SetBPEx(Addr = 0x20001000, Type = 0xFFFFFFF2)  returns 0x0000000E (0000ms, 0334ms total)
T20FC 000:746 JLINK_Go() -- CPU_ReadMem(4 bytes @ 0xE0001000) (0003ms, 0337ms total)
T20FC 000:749 JLINK_IsHalted() -- CPU_ReadMem(2 bytes @ 0x20001000)  returns TRUE (0006ms, 0343ms total)
T20FC 000:755 JLINK_ReadReg(R15 (PC))  returns 0x20001000 (0000ms, 0337ms total)
T20FC 000:755 JLINK_ClrBPEx(BPHandle = 0x0000000E)  returns 0x00 (0000ms, 0337ms total)
T20FC 000:755 JLINK_ReadReg(R0)  returns 0x00000001 (0000ms, 0337ms total)
T20FC 000:755 JLINK_WriteReg(R0, 0x00001800)  returns 0x00 (0000ms, 0337ms total)
T20FC 000:755 JLINK_WriteReg(R1, 0x00000400)  returns 0x00 (0000ms, 0337ms total)
T20FC 000:755 JLINK_WriteReg(R2, 0x000000FF)  returns 0x00 (0000ms, 0337ms total)
T20FC 000:755 JLINK_WriteReg(R3, 0x00000000)  returns 0x00 (0000ms, 0337ms total)
T20FC 000:755 JLINK_WriteReg(R4, 0x00000000)  returns 0x00 (0000ms, 0337ms total)
T20FC 000:755 JLINK_WriteReg(R5, 0x00000000)  returns 0x00 (0000ms, 0337ms total)
T20FC 000:755 JLINK_WriteReg(R6, 0x00000000)  returns 0x00 (0000ms, 0337ms total)
T20FC 000:755 JLINK_WriteReg(R7, 0x00000000)  returns 0x00 (0000ms, 0337ms total)
T20FC 000:755 JLINK_WriteReg(R8, 0x00000000)  returns 0x00 (0000ms, 0337ms total)
T20FC 000:755 JLINK_WriteReg(R9, 0x20001108)  returns 0x00 (0000ms, 0337ms total)
T20FC 000:755 JLINK_WriteReg(R10, 0x00000000)  returns 0x00 (0000ms, 0337ms total)
T20FC 000:755 JLINK_WriteReg(R11, 0x00000000)  returns 0x00 (0000ms, 0337ms total)
T20FC 000:755 JLINK_WriteReg(R12, 0x00000000)  returns 0x00 (0000ms, 0337ms total)
T20FC 000:755 JLINK_WriteReg(R13 (SP), 0x20001800)  returns 0x00 (0000ms, 0337ms total)
T20FC 000:755 JLINK_WriteReg(R14, 0x20001001)  returns 0x00 (0000ms, 0337ms total)
T20FC 000:755 JLINK_WriteReg(R15 (PC), 0x20001070)  returns 0x00 (0000ms, 0337ms total)
T20FC 000:755 JLINK_WriteReg(XPSR, 0x01000000)  returns 0x00 (0000ms, 0337ms total)
T20FC 000:755 JLINK_WriteReg(MSP, 0x20001800)  returns 0x00 (0000ms, 0337ms total)
T20FC 000:755 JLINK_WriteReg(PSP, 0x20001800)  returns 0x00 (0000ms, 0337ms total)
T20FC 000:755 JLINK_WriteReg(CFBP, 0x00000000)  returns 0x00 (0000ms, 0337ms total)
T20FC 000:755 JLINK_SetBPEx(Addr = 0x20001000, Type = 0xFFFFFFF2)  returns 0x0000000F (0000ms, 0337ms total)
T20FC 000:755 JLINK_Go() -- CPU_ReadMem(4 bytes @ 0xE0001000) (0003ms, 0340ms total)
T20FC 000:758 JLINK_IsHalted()  returns FALSE (0000ms, 0340ms total)
T20FC 000:762 JLINK_IsHalted()  returns FALSE (0001ms, 0341ms total)
T20FC 000:764 JLINK_IsHalted()  returns FALSE (0001ms, 0341ms total)
T20FC 000:766 JLINK_IsHalted()  returns FALSE (0001ms, 0341ms total)
T20FC 000:768 JLINK_IsHalted()  returns FALSE (0001ms, 0341ms total)
T20FC 000:770 JLINK_IsHalted()  returns FALSE (0001ms, 0341ms total)
T20FC 000:772 JLINK_IsHalted()  returns FALSE (0001ms, 0341ms total)
T20FC 000:774 JLINK_IsHalted()  returns FALSE (0001ms, 0341ms total)
T20FC 000:776 JLINK_IsHalted()  returns FALSE (0001ms, 0341ms total)
T20FC 000:778 JLINK_IsHalted()  returns FALSE (0001ms, 0341ms total)
T20FC 000:780 JLINK_IsHalted() -- CPU_ReadMem(2 bytes @ 0x20001000)  returns TRUE (0006ms, 0346ms total)
T20FC 000:787 JLINK_ReadReg(R15 (PC))  returns 0x20001000 (0000ms, 0340ms total)
T20FC 000:787 JLINK_ClrBPEx(BPHandle = 0x0000000F)  returns 0x00 (0000ms, 0340ms total)
T20FC 000:787 JLINK_ReadReg(R0)  returns 0x00000000 (0000ms, 0340ms total)
T20FC 000:787 JLINK_WriteReg(R0, 0x00001C00)  returns 0x00 (0000ms, 0340ms total)
T20FC 000:787 JLINK_WriteReg(R1, 0x00000400)  returns 0x00 (0000ms, 0340ms total)
T20FC 000:787 JLINK_WriteReg(R2, 0x000000FF)  returns 0x00 (0000ms, 0340ms total)
T20FC 000:787 JLINK_WriteReg(R3, 0x00000000)  returns 0x00 (0000ms, 0340ms total)
T20FC 000:787 JLINK_WriteReg(R4, 0x00000000)  returns 0x00 (0000ms, 0340ms total)
T20FC 000:787 JLINK_WriteReg(R5, 0x00000000)  returns 0x00 (0000ms, 0340ms total)
T20FC 000:787 JLINK_WriteReg(R6, 0x00000000)  returns 0x00 (0000ms, 0340ms total)
T20FC 000:787 JLINK_WriteReg(R7, 0x00000000)  returns 0x00 (0000ms, 0340ms total)
T20FC 000:787 JLINK_WriteReg(R8, 0x00000000)  returns 0x00 (0000ms, 0340ms total)
T20FC 000:787 JLINK_WriteReg(R9, 0x20001108)  returns 0x00 (0000ms, 0340ms total)
T20FC 000:787 JLINK_WriteReg(R10, 0x00000000)  returns 0x00 (0000ms, 0340ms total)
T20FC 000:787 JLINK_WriteReg(R11, 0x00000000)  returns 0x00 (0000ms, 0340ms total)
T20FC 000:787 JLINK_WriteReg(R12, 0x00000000)  returns 0x00 (0000ms, 0340ms total)
T20FC 000:787 JLINK_WriteReg(R13 (SP), 0x20001800)  returns 0x00 (0000ms, 0340ms total)
T20FC 000:787 JLINK_WriteReg(R14, 0x20001001)  returns 0x00 (0000ms, 0340ms total)
T20FC 000:787 JLINK_WriteReg(R15 (PC), 0x20001020)  returns 0x00 (0000ms, 0340ms total)
T20FC 000:787 JLINK_WriteReg(XPSR, 0x01000000)  returns 0x00 (0000ms, 0340ms total)
T20FC 000:787 JLINK_WriteReg(MSP, 0x20001800)  returns 0x00 (0000ms, 0340ms total)
T20FC 000:787 JLINK_WriteReg(PSP, 0x20001800)  returns 0x00 (0000ms, 0340ms total)
T20FC 000:787 JLINK_WriteReg(CFBP, 0x00000000)  returns 0x00 (0000ms, 0340ms total)
T20FC 000:787 JLINK_SetBPEx(Addr = 0x20001000, Type = 0xFFFFFFF2)  returns 0x00000010 (0000ms, 0340ms total)
T20FC 000:787 JLINK_Go() -- CPU_ReadMem(4 bytes @ 0xE0001000) (0003ms, 0343ms total)
T20FC 000:790 JLINK_IsHalted() -- CPU_ReadMem(2 bytes @ 0x20001000)  returns TRUE (0007ms, 0350ms total)
T20FC 000:797 JLINK_ReadReg(R15 (PC))  returns 0x20001000 (0000ms, 0343ms total)
T20FC 000:797 JLINK_ClrBPEx(BPHandle = 0x00000010)  returns 0x00 (0000ms, 0343ms total)
T20FC 000:797 JLINK_ReadReg(R0)  returns 0x00000001 (0000ms, 0343ms total)
T20FC 000:797 JLINK_WriteReg(R0, 0x00001C00)  returns 0x00 (0000ms, 0343ms total)
T20FC 000:797 JLINK_WriteReg(R1, 0x00000400)  returns 0x00 (0000ms, 0343ms total)
T20FC 000:797 JLINK_WriteReg(R2, 0x000000FF)  returns 0x00 (0000ms, 0343ms total)
T20FC 000:797 JLINK_WriteReg(R3, 0x00000000)  returns 0x00 (0000ms, 0343ms total)
T20FC 000:797 JLINK_WriteReg(R4, 0x00000000)  returns 0x00 (0000ms, 0343ms total)
T20FC 000:797 JLINK_WriteReg(R5, 0x00000000)  returns 0x00 (0000ms, 0343ms total)
T20FC 000:797 JLINK_WriteReg(R6, 0x00000000)  returns 0x00 (0000ms, 0343ms total)
T20FC 000:797 JLINK_WriteReg(R7, 0x00000000)  returns 0x00 (0000ms, 0343ms total)
T20FC 000:797 JLINK_WriteReg(R8, 0x00000000)  returns 0x00 (0000ms, 0343ms total)
T20FC 000:797 JLINK_WriteReg(R9, 0x20001108)  returns 0x00 (0000ms, 0343ms total)
T20FC 000:797 JLINK_WriteReg(R10, 0x00000000)  returns 0x00 (0000ms, 0343ms total)
T20FC 000:797 JLINK_WriteReg(R11, 0x00000000)  returns 0x00 (0000ms, 0343ms total)
T20FC 000:797 JLINK_WriteReg(R12, 0x00000000)  returns 0x00 (0000ms, 0343ms total)
T20FC 000:797 JLINK_WriteReg(R13 (SP), 0x20001800)  returns 0x00 (0000ms, 0343ms total)
T20FC 000:797 JLINK_WriteReg(R14, 0x20001001)  returns 0x00 (0000ms, 0343ms total)
T20FC 000:797 JLINK_WriteReg(R15 (PC), 0x20001070)  returns 0x00 (0000ms, 0343ms total)
T20FC 000:797 JLINK_WriteReg(XPSR, 0x01000000)  returns 0x00 (0000ms, 0343ms total)
T20FC 000:797 JLINK_WriteReg(MSP, 0x20001800)  returns 0x00 (0000ms, 0343ms total)
T20FC 000:797 JLINK_WriteReg(PSP, 0x20001800)  returns 0x00 (0000ms, 0343ms total)
T20FC 000:797 JLINK_WriteReg(CFBP, 0x00000000)  returns 0x00 (0000ms, 0343ms total)
T20FC 000:797 JLINK_SetBPEx(Addr = 0x20001000, Type = 0xFFFFFFF2)  returns 0x00000011 (0000ms, 0343ms total)
T20FC 000:797 JLINK_Go() -- CPU_ReadMem(4 bytes @ 0xE0001000) (0002ms, 0345ms total)
T20FC 000:799 JLINK_IsHalted()  returns FALSE (0001ms, 0346ms total)
T20FC 000:804 JLINK_IsHalted()  returns FALSE (0000ms, 0345ms total)
T20FC 000:806 JLINK_IsHalted()  returns FALSE (0000ms, 0345ms total)
T20FC 000:808 JLINK_IsHalted()  returns FALSE (0000ms, 0345ms total)
T20FC 000:810 JLINK_IsHalted()  returns FALSE (0000ms, 0345ms total)
T20FC 000:813 JLINK_IsHalted()  returns FALSE (0000ms, 0345ms total)
T20FC 000:821 JLINK_IsHalted() -- CPU_ReadMem(2 bytes @ 0x20001000)  returns TRUE (0006ms, 0351ms total)
T20FC 000:827 JLINK_ReadReg(R15 (PC))  returns 0x20001000 (0000ms, 0345ms total)
T20FC 000:827 JLINK_ClrBPEx(BPHandle = 0x00000011)  returns 0x00 (0000ms, 0345ms total)
T20FC 000:827 JLINK_ReadReg(R0)  returns 0x00000000 (0000ms, 0345ms total)
T20FC 000:828 JLINK_WriteReg(R0, 0x00002000)  returns 0x00 (0000ms, 0345ms total)
T20FC 000:828 JLINK_WriteReg(R1, 0x00000400)  returns 0x00 (0000ms, 0345ms total)
T20FC 000:828 JLINK_WriteReg(R2, 0x000000FF)  returns 0x00 (0000ms, 0345ms total)
T20FC 000:828 JLINK_WriteReg(R3, 0x00000000)  returns 0x00 (0000ms, 0345ms total)
